! peters_01_0605 B20 channel thru response
#        HZ        S              RI          R       50
5.00000000e+007  6.768019389785e-002 -4.971784181709e-002 -2.105662628885e-001 -8.943627288685e-001  7.345294841507e-002 -1.450279318382e-002 -1.092171936464e-003  3.612511101879e-003 
                -2.105275508368e-001 -8.939105643339e-001  7.319702155685e-002 -4.097425118542e-002 -1.044642995323e-003  3.355132935119e-003  7.287111786141e-002 -1.754714499935e-002 
                 7.330740488844e-002 -1.481784358545e-002 -6.916310807101e-004  3.321760895699e-003  6.275878384577e-002 -5.247434312310e-002 -2.123127182868e-001 -8.976124854600e-001 
                -8.771145701121e-004  3.471920366439e-003  7.315807860473e-002 -1.773477555155e-002 -2.124456658741e-001 -8.983650914302e-001  7.009991033052e-002 -3.587607253662e-002 
6.00000000e+007  5.180872556495e-002 -6.279555108712e-002 -5.022253753783e-001 -7.606049495968e-001  6.244341511047e-002 -3.594270872294e-002 -1.171964233683e-004  3.248886886050e-003 
                -5.022235465721e-001 -7.606948317883e-001  6.059652690051e-002 -5.326350168358e-002  2.717490030350e-006  2.597998578762e-003  6.038468209249e-002 -3.937656777310e-002 
                 6.222810590159e-002 -3.586171384499e-002  8.528530457354e-005  2.632618927385e-003  4.987258868039e-002 -6.188277128827e-002 -5.049577834174e-001 -7.626728951098e-001 
                 1.562190209699e-004  3.286289034380e-003  6.035979811739e-002 -3.932500948796e-002 -5.055854093027e-001 -7.632371636105e-001  6.080093595005e-002 -4.759786595634e-002 
7.00000000e+007  3.361825277290e-002 -6.772730339012e-002 -7.283684132316e-001 -5.370940932160e-001  4.225400936469e-002 -4.651845900940e-002  1.795971108649e-004  2.655934652391e-003 
                -7.283581043396e-001 -5.371047032785e-001  4.522722820368e-002 -6.000431175351e-002 -4.265727510930e-004  1.917115460275e-003  3.840233934846e-002 -4.963947957590e-002 
                 4.197015189875e-002 -4.646524879516e-002 -3.782679964608e-004  1.891548128611e-003  3.480831168347e-002 -7.028150168249e-002 -7.322042427169e-001 -5.385010939296e-001 
                 1.026977243113e-004  2.819130039112e-003  3.836636783428e-002 -4.959903482130e-002 -7.325287145112e-001 -5.382116446646e-001  4.743026163903e-002 -5.545391890438e-002 
8.00000000e+007  1.707164278417e-002 -6.452069508034e-002 -8.630396936976e-001 -2.516281776320e-001  2.100874684214e-002 -4.338611046318e-002 -1.096863834293e-004  2.904929929842e-003 
                -8.632573483916e-001 -2.514674799889e-001  2.942435798981e-002 -6.137963653271e-002 -1.067038334201e-003  2.250890977668e-003  1.565403301479e-002 -4.514182197665e-002 
                 2.097713470524e-002 -4.324141002047e-002 -1.020389787509e-003  2.294324667859e-003  1.451145323187e-002 -7.215421350205e-002 -8.674970197934e-001 -2.502317617840e-001 
                -9.249372870318e-005  2.816481654503e-003  1.545005643168e-002 -4.509789349025e-002 -8.673974767954e-001 -2.502881919807e-001  3.275571186119e-002 -5.770198039467e-002 
9.00000000e+007  6.056756660641e-003 -5.590486135171e-002 -8.909776928336e-001  6.095009821940e-002  7.530041169490e-003 -2.899621085566e-002  4.772812310704e-005  3.813701355149e-003 
                -8.910020983020e-001  6.098893662357e-002  1.476596727720e-002 -5.700875643591e-002 -1.419262324172e-003  3.698001548835e-003  1.110139207694e-003 -2.878560126069e-002 
                 7.367199782179e-003 -2.883885560090e-002 -1.392422055206e-003  3.761553112768e-003 -3.438348599852e-003 -6.114339996194e-002 -8.936857626870e-001  6.406345301006e-002 
                -6.448695659296e-005  3.825456499874e-003  1.045731748353e-003 -2.869595215550e-002 -8.937574198018e-001  6.437775918948e-002  2.017250888699e-002 -5.577087173610e-002 
1.00000000e+008  1.546511422724e-003 -4.611007263516e-002 -8.095855197322e-001  3.614951221924e-001  6.683390077520e-003 -1.042928885743e-002  1.206105312103e-003  5.116772320137e-003 
                -8.093241679454e-001  3.613593475593e-001  5.954658416294e-003 -4.758890252092e-002 -2.126942601718e-004  5.804104164442e-003  4.373316122687e-004 -7.792738033638e-003 
                 6.709452165241e-003 -1.042800324330e-002 -2.314066588857e-004  5.704308192781e-003 -7.883731955608e-003 -4.831805686751e-002 -8.104043386216e-001  3.636432639927e-001 
                 1.206855324883e-003  5.082683958776e-003  4.172648788918e-004 -7.766799470879e-003 -8.103931857213e-001  3.635435337582e-001  9.220500044177e-003 -5.267102773760e-002 
1.10000000e+008  2.321231654574e-003 -3.735695282817e-002 -6.317036167847e-001  6.135272663592e-001  1.847838720164e-002  3.759741404197e-003  3.679239457227e-003  5.718670913454e-003 
                -6.314880617760e-001  6.135468059818e-001  4.176304467852e-003 -3.757260833362e-002  2.560012868890e-003  7.013379364551e-003  1.337658130708e-002  8.619201908245e-003 
                 1.845483090086e-002  3.740069039556e-003  2.579886820660e-003  7.046573634937e-003 -8.076593461262e-003 -3.623786372100e-002 -6.326402421277e-001  6.159736490830e-001 
                 3.719282023649e-003  5.673587685809e-003  1.339230169659e-002  8.594755625814e-003 -6.330978410633e-001  6.159737654649e-001  1.514166583468e-003 -4.500653645369e-002 
1.20000000e+008  7.406400404820e-003 -3.250385826396e-002 -3.793930842617e-001  7.873373991215e-001  3.760808242587e-002  6.744138213980e-003  6.823249749546e-003  4.760846863250e-003 
                -3.794205806773e-001  7.874429238710e-001  9.103832715183e-003 -3.060778853321e-002  6.236892208769e-003  6.619682815377e-003  3.450427690805e-002  1.313549675698e-002 
                 3.753673288148e-002  6.694350273502e-003  6.340248956216e-003  6.637415473903e-003  2.942750431440e-004 -3.041357636318e-002 -3.797081259520e-001  7.906214610742e-001 
                 6.823594421016e-003  4.721796604840e-003  3.447842850357e-002  1.313031621569e-002 -3.802337772799e-001  7.909036369018e-001  1.203685457313e-004 -3.636480078886e-002 
1.30000000e+008  1.349233483298e-002 -3.289443443433e-002 -8.570772097191e-002  8.628638007622e-001  5.574310743016e-002 -3.718556578851e-003  9.541284781051e-003  1.957417872321e-003 
                -8.546491797949e-002  8.630536909253e-001  1.625765491614e-002 -2.923567958211e-002  9.671166245923e-003  3.961305901306e-003  5.513485807428e-002  3.324552620961e-003 
                 5.561823824792e-002 -3.727415082623e-003  9.727654726946e-003  3.965823812693e-003  6.172380965786e-003 -3.347977970676e-002 -8.427321227461e-002  8.665980246279e-001 
                 9.555568695445e-003  1.957453168439e-003  5.514862785267e-002  3.278621961622e-003 -8.505640381141e-002  8.670078298785e-001  4.153914682958e-003 -2.981098444880e-002 
1.40000000e+008  1.793635239591e-002 -3.767753579694e-002  2.128522039240e-001  8.338932402800e-001  6.512934413428e-002 -2.441162527646e-002  1.075955149980e-002 -2.248580779756e-003 
                 2.132787523418e-001  8.334549721014e-001  2.253301937575e-002 -3.199582775632e-002  1.157361599709e-002 -2.349228637777e-004  6.703279829386e-002 -1.781999646171e-002 
                 6.508573895872e-002 -2.446803370108e-002  1.158508599843e-002 -2.105977420958e-004  6.017862898864e-003 -3.770680551479e-002  2.156638966827e-001  8.366717660275e-001 
                 1.080119515031e-002 -2.249727166786e-003  6.696733545772e-002 -1.788701223494e-002  2.155363269166e-001  8.379654407315e-001  1.129811013496e-002 -2.763680799908e-002 
1.50000000e+008  1.921601799182e-002 -4.524984611618e-002  4.814487292167e-001  7.059245851503e-001  6.132763311367e-002 -4.847617296853e-002  9.873631748929e-003 -7.008213758622e-003 
                 4.810716985437e-001  7.055752898885e-001  2.668259087974e-002 -3.868430405145e-002  1.136369258374e-002 -5.108147595969e-003  6.531076204259e-002 -4.323732921234e-002 
                 6.124962601001e-002 -4.839424588351e-002  1.139984632643e-002 -5.091043972883e-003  5.610209181139e-003 -3.873280679145e-002  4.851482381739e-001  7.079937477272e-001 
                 9.909865537275e-003 -7.029727237464e-003  6.524230171256e-002 -4.323022429096e-002  4.858226779294e-001  7.085219564943e-001  1.800016748438e-002 -3.021926945732e-002 
1.60000000e+008  1.696613568237e-002 -5.373835547360e-002  6.888056450441e-001  4.960383647304e-001  4.471881897100e-002 -6.762918866021e-002  6.670113331868e-003 -1.117702304462e-002 
                 6.888726788276e-001  4.956867814869e-001  2.591907726085e-002 -4.899227398219e-002  8.916206504261e-003 -9.557839848699e-003  4.993326596695e-002 -6.417913061014e-002 
                 4.460166399378e-002 -6.751842688471e-002  8.962654019551e-003 -9.621176327551e-003  8.212961071519e-003 -4.223384774606e-002  6.936368336238e-001  4.963493180506e-001 
                 6.658067975445e-003 -1.120514555168e-002  4.994538352055e-002 -6.415449384871e-002  6.944878718367e-001  4.964727219905e-001  2.138229343297e-002 -3.707033251195e-002 
1.70000000e+008  1.066002125407e-002 -6.150504069475e-002  8.109570180601e-001  2.295596622734e-001  2.007154994958e-002 -7.531016268487e-002  1.553236687554e-003 -1.338115453884e-002 
                 8.108583081021e-001  2.297393966168e-001  1.674754416695e-002 -5.950513636129e-002  4.614417672929e-003 -1.247065990795e-002  2.610584254041e-002 -7.353980066097e-002 
                 1.999499922948e-002 -7.515669262822e-002  4.591761187840e-003 -1.257381108470e-002  7.035585399096e-003 -5.223430840063e-002  8.156133476542e-001  2.282783979647e-001 
                 1.590552142851e-003 -1.328915346743e-002  2.603325129976e-002 -7.353900970073e-002  8.165222935147e-001  2.281173660958e-001  1.896318295454e-002 -4.570736174002e-002 
1.80000000e+008  2.351269815089e-003 -6.629431669651e-002  8.364361369399e-001 -5.872353741099e-002 -3.588107256393e-003 -6.877346272594e-002 -2.856064254097e-003 -1.316066054484e-002 
                 8.365613702577e-001 -5.916564538232e-002  1.446207233385e-003 -6.486387966070e-002  6.139801805979e-004 -1.303955307278e-002  3.120333689999e-003 -6.937085842530e-002 
                -3.665290111838e-003 -6.859314199974e-002  5.629705394116e-004 -1.306587724463e-002 -4.194534773400e-003 -6.113026217868e-002  8.400756259109e-001 -6.280445167734e-002 
                -2.858568729919e-003 -1.313350927271e-002  3.064651733389e-003 -6.933129964708e-002  8.404696863119e-001 -6.335275610977e-002  1.107508498218e-002 -5.380192740634e-002 
1.90000000e+008 -7.979758156304e-003 -6.788561017452e-002  7.626985465756e-001 -3.389958631245e-001 -1.955967326846e-002 -5.182046412983e-002 -7.278905681349e-003 -1.190862633061e-002 
                 7.623754528542e-001 -3.394908440434e-001 -1.681516246300e-002 -6.163232541729e-002 -3.271566222526e-003 -1.317797171235e-002 -1.315084203301e-002 -5.489165126704e-002 
                -1.958554036480e-002 -5.175402887331e-002 -3.317295774845e-003 -1.323149385905e-002 -1.960055981954e-002 -5.940177403715e-002  7.638590923190e-001 -3.439439436386e-001 
                -7.264174315483e-003 -1.188129822512e-002 -1.320582325056e-002 -5.487536420175e-002  7.637378454575e-001 -3.445196286424e-001 -3.131662309208e-003 -5.819579960084e-002 
2.00000000e+008 -1.773221713399e-002 -6.508778745289e-002  5.979000547154e-001 -5.761670030992e-001 -2.291380845587e-002 -3.033812359141e-002 -1.103237407998e-002 -9.369279489870e-003 
                 5.977828255071e-001 -5.758577382347e-001 -3.004885766698e-002 -4.946293337348e-002 -7.364641778557e-003 -1.248699565442e-002 -1.748309011864e-002 -3.570659055278e-002 
                -2.292142129703e-002 -3.024333231845e-002 -7.340991958209e-003 -1.248003517902e-002 -2.892885289340e-002 -5.216211344714e-002  5.975313964547e-001 -5.796845050714e-001 
                -1.104643316935e-002 -9.312412052476e-003 -1.749046629250e-002 -3.568850129763e-002  5.973970799164e-001 -5.798990198848e-001 -1.928890144877e-002 -5.467422436486e-002 
2.10000000e+008 -2.455143821326e-002 -5.847389539496e-002  3.635315579409e-001 -7.417725651957e-001 -1.323703130420e-002 -1.231239563414e-002 -1.411418219478e-002 -5.856519612589e-003 
                 3.632366990428e-001 -7.415495527775e-001 -3.456464858303e-002 -3.343982232805e-002 -1.164902431504e-002 -1.069351212220e-002 -9.480696979520e-003 -1.990111355634e-002 
                -1.327319038821e-002 -1.233665505388e-002 -1.167809037270e-002 -1.079037558416e-002 -3.436706692181e-002 -4.152505647428e-002  3.627488640192e-001 -7.454544550097e-001 
                -1.409691508718e-002 -5.822412646379e-003 -9.487256727811e-003 -1.991128061629e-002  3.630807315876e-001 -7.454730691519e-001 -3.019249569025e-002 -4.365053068399e-002 
2.20000000e+008 -2.703266579912e-002 -5.160084290778e-002  8.768822819283e-002 -8.173466853211e-001  4.947528928220e-003 -4.832495577279e-003 -1.639181155489e-002 -1.309064532010e-003 
                 8.791931694289e-002 -8.166500032874e-001 -2.834078595667e-002 -1.850274486011e-002 -1.614936375708e-002 -7.183569811832e-003  6.259916611997e-003 -1.416984562410e-002 
                 4.926682777194e-003 -4.838059715722e-003 -1.615998628235e-002 -7.216234984695e-003 -3.218359032928e-002 -3.323652717293e-002  8.575023363380e-002 -8.203042414298e-001 
                -1.635761968197e-002 -1.259013240577e-003  6.281795795262e-003 -1.418750498103e-002  8.630214270449e-002 -8.209079892342e-001 -3.308527068793e-002 -3.056233866225e-002 
2.30000000e+008 -2.607781975066e-002 -4.693033174880e-002 -1.964616359827e-001 -7.933463693035e-001  2.411121325365e-002 -1.095439110298e-002 -1.743321198050e-002  4.565036806312e-003 
                -1.959460980703e-001 -7.931493911465e-001 -1.453185596666e-002 -1.090252499030e-002 -1.969544430759e-002 -1.248878907882e-003  2.221900362110e-002 -2.133547032727e-002 
                 2.408946657371e-002 -1.094181722540e-002 -1.977481866892e-002 -1.307543732023e-003 -3.002864132329e-002 -2.956166003927e-002 -1.980110174856e-001 -7.959807124261e-001 
                -1.738769903521e-002  4.569070612398e-003  2.225809034444e-002 -2.134817779622e-002 -1.987902150464e-001 -7.966460719026e-001 -2.796865373301e-002 -1.926229499210e-002 
2.40000000e+008 -2.401994511810e-002 -4.568647165763e-002 -4.525113026708e-001 -6.735864493858e-001  3.630920484382e-002 -2.890232010773e-002 -1.619412736949e-002  1.137690290636e-002 
                -4.520270760576e-001 -6.738428614349e-001  9.628585842763e-004 -1.276573959262e-002 -2.074155349117e-002  6.924857238459e-003  3.070365763626e-002 -3.922017196234e-002 
                 3.626312425294e-002 -2.888634389146e-002 -2.081058367933e-002  6.907455097625e-003 -2.889869453972e-002 -2.589175650472e-002 -4.558270558172e-001 -6.762536738606e-001 
                -1.614019625963e-002  1.138402677881e-002  3.064977180150e-002 -3.921407820561e-002 -4.559417183769e-001 -6.765562592597e-001 -1.758688882458e-002 -1.332702883136e-002 
2.50000000e+008 -2.339233578999e-002 -4.817721206430e-002 -6.496254806459e-001 -4.757979594919e-001  3.586358735628e-002 -5.310655162914e-002 -1.173175342550e-002  1.825173335778e-002 
                -6.499344170148e-001 -4.756349871862e-001  1.230672223959e-002 -2.336621211745e-002 -1.760966698793e-002  1.578677068226e-002  2.630105247133e-002 -6.164796196875e-002 
                 3.579321301349e-002 -5.301651559817e-002 -1.762337376815e-002  1.584784206219e-002 -2.457206697216e-002 -2.214872650325e-002 -6.546274032925e-001 -4.764053741296e-001 
                -1.172607610208e-002  1.823279526700e-002  2.628252217795e-002 -6.165586431124e-002 -6.548655067765e-001 -4.774525315446e-001 -6.440962850578e-003 -1.486670109868e-002 
2.60000000e+008 -2.703861537136e-002 -5.170382662627e-002 -7.660463438598e-001 -2.251209289672e-001  2.045112121326e-002 -7.476019455647e-002 -3.388038769911e-003  2.263989525801e-002 
                -7.661044834863e-001 -2.250294675863e-001  1.355218986254e-002 -3.871770384371e-002 -9.565308353528e-003  2.223045831966e-002  7.805606048503e-003 -8.010258946011e-002 
                 2.033305472649e-002 -7.463279101367e-002 -9.527143872556e-003  2.231970774073e-002 -1.843205682260e-002 -2.345904595861e-002 -7.716077058075e-001 -2.242830827047e-001 
                -3.364341205259e-003  2.263837399759e-002  7.758528573178e-003 -8.013027055601e-002 -7.725162759835e-001 -2.248902522689e-001 -3.684091025534e-004 -2.184289336908e-002 
2.70000000e+008 -3.166047865121e-002 -5.413325258634e-002 -7.927604846511e-001  4.695781591739e-002 -3.890808691523e-003 -8.657761738883e-002  4.963560765594e-003  2.262493388999e-002 
                -7.927622301582e-001  4.718149700384e-002  5.556482735920e-003 -5.259329325689e-002 -1.196780454918e-003  2.422645769696e-002 -1.805712662491e-002 -8.727252041194e-002 
                -3.937735256632e-003 -8.647639329348e-002 -1.226046661829e-003  2.430309374510e-002 -1.522515040278e-002 -3.142167804578e-002 -7.975045084579e-001  5.028111706520e-002 
                 4.948558379626e-003  2.259239150607e-002 -1.805057580980e-002 -8.716971420129e-002 -7.981749248454e-001  5.045436722498e-002 -4.147425119459e-004 -3.022215435155e-002 
2.80000000e+008 -3.989107983304e-002 -5.634176874890e-002 -7.255791964681e-001  3.119065541052e-001 -3.323106164577e-002 -8.639001830591e-002  1.340430432364e-002  2.019178846955e-002 
                -7.256269438184e-001  3.120714516723e-001 -1.332286934295e-002 -6.125386313100e-002  8.113748544946e-003  2.366362906550e-002 -4.651908375306e-002 -8.225476795163e-002 
                -3.312573877465e-002 -8.615945853262e-002  8.168091459492e-003  2.376338919240e-002 -2.278862749462e-002 -4.013449720517e-002 -7.287492991004e-001  3.164496929081e-001 
                 1.342448293645e-002  2.011829649570e-002 -4.649256160866e-002 -8.218934784426e-002 -7.291978775372e-001  3.170884892963e-001 -8.064454653217e-003 -3.734825634680e-002 
2.90000000e+008 -5.043789439450e-002 -5.405378404930e-002 -5.737008018495e-001  5.361850198330e-001 -5.990239333616e-002 -7.206302764663e-002  2.048569208340e-002  1.414029999202e-002 
                -5.735796326492e-001  5.366059653367e-001 -3.665242759738e-002 -5.683913242845e-002  1.630977795125e-002  1.893650461888e-002 -7.041351132815e-002 -6.419336033766e-002 
                -5.984991864748e-002 -7.188944986498e-002  1.638356777625e-002  1.898775784344e-002 -3.525194876943e-002 -3.920747037183e-002 -5.747512942027e-001  5.419942710180e-001 
                 2.040819138430e-002  1.409590484579e-002 -7.041530190942e-002 -6.413497705624e-002 -5.745908558927e-001  5.421395841344e-001 -2.109981483278e-002 -3.865528857766e-002 
3.00000000e+008 -5.983082531762e-002 -4.667930309905e-002 -3.567894503466e-001  6.952954214910e-001 -7.708550694201e-002 -4.725716182223e-002  2.440474591308e-002  5.934798473261e-003 
                -3.562382378220e-001  6.952836242876e-001 -5.409806475526e-002 -4.032040712513e-002  2.150664183809e-002  1.193017991685e-002 -8.346190807113e-002 -3.756729468734e-002 
                -7.691515833778e-002 -4.711983466519e-002  2.156926188333e-002  1.198014485757e-002 -4.360695141238e-002 -3.225877171435e-002 -3.554768323323e-001  7.001431198912e-001 
                 2.431976993349e-002  5.920277897390e-003 -8.341700091717e-002 -3.754280935125e-002 -3.560381397617e-001  6.998634594520e-001 -3.459770575117e-002 -3.187247147234e-002 
3.10000000e+008 -6.530935912887e-002 -3.542009636034e-002 -9.970870080554e-002  7.717213289003e-001 -8.074384482664e-002 -1.852642670920e-002  2.509100123027e-002 -2.710687415096e-003 
                -9.929939915522e-002  7.715704359833e-001 -6.039114261482e-002 -1.765175961985e-002  2.386121560192e-002  4.435683712666e-003 -8.317189848661e-002 -9.306921248913e-003 
                -8.063771942309e-002 -1.843436275664e-002  2.391630916252e-002  4.445720643830e-003 -4.824838935826e-002 -2.165935579221e-002 -9.787371254328e-002  7.758167061549e-001 
