! peters_01_0605 M20 channel thru response
#        HZ        S              RI          R       50
5.00000000e+007  8.058638950016e-002 -4.775225032739e-002 -2.285341930011e-001 -8.889704573299e-001  7.315136629371e-002 -1.835081288018e-002  2.085222002325e-003  3.508049344154e-003 
                -2.280313403159e-001 -8.873620011488e-001  7.964970047148e-002 -5.024419512545e-002  2.034241145710e-003  3.488166704890e-003  7.363624784703e-002 -1.702166522439e-002 
                 7.318863779605e-002 -1.838716037235e-002  2.046796940589e-003  3.521356455117e-003  8.035988545054e-002 -4.719742403327e-002 -2.326777122791e-001 -8.852286034791e-001 
                 2.106969253554e-003  3.500867973028e-003  7.358415837423e-002 -1.709141554572e-002 -2.332871168479e-001 -8.844642409288e-001  7.971350163624e-002 -5.149163097911e-002 
6.00000000e+007  6.587509286563e-002 -6.332203420568e-002 -5.195595755818e-001 -7.466330652404e-001  5.969555990768e-002 -3.964697177980e-002  3.342767039120e-003  1.349790177092e-003 
                -5.193136863140e-001 -7.464411155396e-001  6.338778439274e-002 -6.758597776003e-002  3.313760638755e-003  1.360042068849e-003  6.094567545561e-002 -3.799275940571e-002 
                 5.973758103554e-002 -3.968853501986e-002  3.335281658033e-003  1.368181735584e-003  6.525420445746e-002 -6.263458549894e-002 -5.233514433503e-001 -7.414404449611e-001 
                 3.320040663188e-003  1.404761543742e-003  6.098932487702e-002 -3.802103563878e-002 -5.237017254854e-001 -7.415309893812e-001  6.264629834272e-002 -6.855992958686e-002 
7.00000000e+007  4.707860308339e-002 -7.148861962380e-002 -7.416466571159e-001 -5.151207335274e-001  3.715011043566e-002 -4.874513553800e-002  2.798697986245e-003 -9.760049086913e-004 
                -7.415179062529e-001 -5.151588432040e-001  4.171509747778e-002 -7.621697736344e-002  2.784037355049e-003 -9.664083017488e-004  3.950673545006e-002 -4.729804417816e-002 
                 3.718409638383e-002 -4.879341538689e-002  2.792074793861e-003 -9.828114496102e-004  4.641283161117e-002 -7.017751656217e-002 -7.439990451751e-001 -5.081229542420e-001 
                 2.801736911465e-003 -1.003417300497e-003  3.951845777641e-002 -4.728043079303e-002 -7.442895033696e-001 -5.080681988963e-001  4.029106790780e-002 -7.635002349606e-002 
8.00000000e+007  2.818150296784e-002 -7.159413643221e-002 -8.686799393832e-001 -2.230096224700e-001  1.483019179790e-002 -4.272112703613e-002  8.264508717132e-004 -2.076584685642e-003 
                -8.687027733728e-001 -2.230775113687e-001  2.020160077139e-002 -7.415867209756e-002  7.733399058785e-004 -2.063870487694e-003  1.829743105546e-002 -4.204622505970e-002 
                 1.479560164346e-002 -4.279978267478e-002  7.396480245064e-004 -2.069812745116e-003  2.835836778304e-002 -6.942984214790e-002 -8.686174390891e-001 -2.146405601146e-001 
                 8.405919490560e-004 -2.055783591525e-003  1.829498534022e-002 -4.202002393385e-002 -8.688196634985e-001 -2.145725007878e-001  1.900000777140e-002 -7.341315909758e-002 
9.00000000e+007  1.317939682247e-002 -6.545739026570e-002 -8.859272365713e-001  9.268156313487e-002  1.960386206934e-003 -2.497317332498e-002 -1.186586130434e-003 -1.445307356606e-003 
                -8.860167225037e-001  9.276802813327e-002  4.420969338069e-003 -6.445756674830e-002 -1.182139912177e-003 -1.370636796544e-003  6.155939613745e-003 -2.560128841430e-002 
                 1.955472162525e-003 -2.498860447527e-002 -1.190481718299e-003 -1.370028568460e-003  1.483900643786e-002 -6.309759622154e-002 -8.828812901508e-001  1.014773528312e-001 
                -1.162833279497e-003 -1.452976174648e-003  6.145612358510e-003 -2.559451372343e-002 -8.830580005351e-001  1.017087336806e-001  3.761563435920e-003 -6.281847977719e-002 
1.00000000e+008  4.323799186178e-003 -5.611767472551e-002 -7.927086269124e-001  3.926685338904e-001  3.769068980451e-003 -3.646046491832e-003 -1.972163823773e-003  4.768761392658e-004 
                -7.928450034121e-001  3.928145019784e-001 -3.894445692663e-003 -5.154408573005e-002 -1.958761950034e-003  5.292377755782e-004  7.969342533890e-003 -5.893837763082e-003 
                 3.785530985601e-003 -3.643387319111e-003 -1.957389792826e-003  5.266442812178e-004  6.819472464199e-003 -5.413717780149e-002 -7.862210571892e-001  4.006469467701e-001 
                -1.980486626538e-003  4.456149931328e-004  8.006099332011e-003 -5.879359019994e-003 -7.862940862818e-001  4.008648108805e-001 -3.182634203837e-003 -4.969819754805e-002 
1.10000000e+008  1.349034187705e-003 -4.722673631282e-002 -6.021200655619e-001  6.391610458474e-001  1.952265830092e-002  1.146255354908e-002 -1.105604214581e-003  2.370884923547e-003 
                -6.021038523410e-001  6.394084737319e-001 -4.980283851954e-003 -3.922610678813e-002 -1.081982027420e-003  2.451879869068e-003  2.292166395828e-002  7.730033724615e-003 
                 1.956765578911e-002  1.146885381889e-002 -1.105265870131e-003  2.465601621577e-003  4.285159845923e-003 -4.519631186386e-002 -5.925837592260e-001  6.449926495633e-001 
                -1.117431850764e-003  2.381912479269e-003  2.294627242043e-002  7.747808916557e-003 -5.926784083234e-001  6.451922203059e-001 -3.091194670561e-003 -3.777573453301e-002 
1.20000000e+008  3.056853391093e-003 -4.020796716256e-002 -3.398186470812e-001  8.020338883189e-001  4.265193764320e-002  1.296531743848e-002  9.710699778309e-004  3.161213706499e-003 
                -3.397370255883e-001  8.020586920353e-001 -4.773955353259e-004 -3.001420359601e-002  1.022412140887e-003  3.306538131365e-003  4.460846283055e-002  8.494300671335e-003 
                 4.273034404572e-002  1.294455876940e-002  1.033319973462e-003  3.316764361911e-003  6.564046704514e-003 -3.833204130830e-002 -3.281222039112e-001  8.043770383529e-001 
                 9.602833148589e-004  3.165552077475e-003  4.464396722214e-002  8.478888763754e-003 -3.281120954915e-001  8.046479139774e-001  2.630640450715e-003 -2.966157471914e-002 
1.30000000e+008  8.131832483354e-003 -3.699788455389e-002 -4.073094039491e-002  8.628081338603e-001  6.355721568294e-002 -9.947661194902e-004  3.140214331658e-003  2.329625281295e-003 
                -4.089092731379e-002  8.628295989750e-001  8.035119864891e-003 -2.627170679185e-002  3.330860856038e-003  2.497185407156e-003  6.396826884454e-002 -5.184232347501e-003 
                 6.363762038041e-002 -1.032757628145e-003  3.360636079325e-003  2.500769110162e-003  1.190029313605e-002 -3.578937942010e-002 -2.809735623540e-002  8.611257327641e-001 
                 3.158299835512e-003  2.340492074117e-003  6.401843521151e-002 -5.208920528300e-003 -2.807429117011e-002  8.613436002991e-001  1.131730047972e-002 -2.772942858863e-002 
1.40000000e+008  1.379880407987e-002 -3.892875813541e-002  2.577327959711e-001  8.171756302148e-001  7.341272165917e-002 -2.630734792018e-002  4.348095628162e-003  2.451314103939e-004 
                 2.575732607649e-001  8.175121638116e-001  1.680080561959e-002 -2.959117629518e-002  4.674723119321e-003  3.101431245147e-004  7.293429303275e-002 -2.926611468599e-002 
                 7.351445153174e-002 -2.636435504593e-002  4.681356183966e-003  3.158611702085e-004  1.722870890285e-002 -3.856011340155e-002  2.697994510238e-001  8.109216090987e-001 
                 4.374316742271e-003  2.418967513020e-004  7.298370929571e-002 -2.930139064002e-002  2.699635039888e-001  8.112527513532e-001  1.890660373436e-002 -3.262912588826e-002 
1.50000000e+008  1.667780802060e-002 -4.551993146554e-002  5.193798794795e-001  6.730612642553e-001  6.755154535882e-002 -5.449281054080e-002  4.068446057987e-003 -2.180642720220e-003 
                 5.195060011547e-001  6.733150852233e-001  2.188243782889e-002 -3.871126371826e-002  4.434261904319e-003 -2.253441227081e-003  6.741350867202e-002 -5.577135373583e-002 
                 6.761971707506e-002 -5.461055380317e-002  4.435674529931e-003 -2.259485663712e-003  1.930397866577e-002 -4.540044012641e-002  5.292484409834e-001  6.625733768578e-001 
                 4.084681810746e-003 -2.194799194678e-003  6.743455825396e-002 -5.583531904711e-002  5.295400213322e-001  6.626936932637e-001  2.182115669036e-002 -4.213027458604e-002 
1.60000000e+008  1.419042222942e-002 -5.431695423117e-002  7.142010183172e-001  4.500780874233e-001  4.702389580614e-002 -7.609829333312e-002  2.390039385881e-003 -3.958419853166e-003 
                 7.143716273464e-001  4.501243400345e-001  2.093814366779e-002 -5.059351899944e-002  2.840233327532e-003 -4.174383265247e-003  4.863164800240e-002 -7.616058417299e-002 
                 4.703060759332e-002 -7.623047940557e-002  2.855236695286e-003 -4.178677352212e-003  1.658725615391e-002 -5.392347190496e-002  7.203615412773e-001  4.361750941222e-001 
                 2.385193612399e-003 -3.975342429448e-003  4.862796583194e-002 -7.622580924495e-002  7.204884684536e-001  4.361855643203e-001  1.857366661668e-002 -5.296893494693e-002 
1.70000000e+008  5.893034804001e-003 -6.143701735761e-002  8.196431273217e-001  1.762797551034e-001  1.795029372944e-002 -8.339502371261e-002  3.784614065861e-004 -3.849440344222e-003 
                 8.197115817526e-001  1.762896277625e-001  1.317655592668e-002 -6.109319420288e-002  3.042383205225e-004 -4.647051543110e-003  2.238542285105e-002 -8.347972738803e-002 
                 1.790739632766e-002 -8.349015796945e-002  2.810566991587e-004 -4.657527577144e-003  8.370408295624e-003 -6.116188428233e-002  8.209878457180e-001  1.603419289654e-001 
                 3.971588270330e-004 -3.860625061581e-003  2.236521330375e-002 -8.352758905821e-002  8.211932401264e-001  1.603232116063e-001  9.689940521668e-003 -6.100826650288e-002 
1.80000000e+008 -6.543456699759e-003 -6.555222390139e-002  8.261089860340e-001 -1.153695240083e-001 -9.283478590584e-003 -7.519812754489e-002 -6.440705895956e-004 -3.586629207992e-003 
                 8.261917889717e-001 -1.153622411571e-001  1.287036497924e-003 -6.776577912968e-002 -8.478962707455e-004 -3.891704114402e-003 -1.754314872511e-003 -7.753715643695e-002 
                -9.345896425925e-003 -7.525387992653e-002 -8.666551181713e-004 -3.879372875369e-003 -3.136755648976e-003 -6.451579053223e-002  8.217193620653e-001 -1.317223371607e-001 
                -6.550553570982e-004 -3.603952202671e-003 -1.778889981440e-003 -7.757460651163e-002  8.218315291903e-001 -1.317744355700e-001 -2.791374782745e-003 -6.564467870911e-002 
1.90000000e+008 -2.116031858258e-002 -6.322707642683e-002  7.323089793237e-001 -3.906132864240e-001 -2.711235471583e-002 -5.459333518630e-002 -1.291511264957e-003 -3.199140298969e-003 
                 7.323137290758e-001 -3.906914926167e-001 -1.376739852994e-002 -6.823394769994e-002 -1.643042118410e-003 -3.409785564684e-003 -1.789882077907e-002 -6.111592839611e-002 
                -2.718514120891e-002 -5.460293136317e-002 -1.645826893752e-003 -3.402889042535e-003 -1.607892345761e-002 -6.256182738255e-002  7.221789352626e-001 -4.052207831133e-001 
                -1.316088679388e-003 -3.194516487356e-003 -1.791838945535e-002 -6.114354049551e-002  7.222446055506e-001 -4.053305779658e-001 -1.716026044893e-002 -6.349291222117e-002 
2.00000000e+008 -3.319891582597e-002 -5.431432257683e-002  5.502687264045e-001 -6.159392927401e-001 -2.992751773377e-002 -2.938209118315e-002 -1.792040023461e-003 -3.162565027682e-003 
                 5.502810202590e-001 -6.159940152824e-001 -2.763482899924e-002 -6.122632197170e-002 -2.212880859291e-003 -3.123578445083e-003 -2.132151794840e-002 -4.116490924776e-002 
                -2.998235911247e-002 -2.936758592480e-002 -2.213906294026e-003 -3.130203654920e-003 -2.701800750939e-002 -5.499015940350e-002  5.350441609656e-001 -6.267409971732e-001 
                -1.793366191327e-003 -3.160663491074e-003 -2.133986620065e-002 -4.117567533797e-002  5.351461538451e-001 -6.268800780961e-001 -2.868310259164e-002 -5.487478643893e-002 
2.10000000e+008 -3.913394089107e-002 -4.157508732804e-002  3.025759431804e-001 -7.639130148940e-001 -1.793107549279e-002 -9.053402712334e-003 -2.830784066660e-003 -3.430942373160e-003 
                 3.025746323980e-001 -7.640899272685e-001 -3.607023360017e-002 -4.877559988385e-002 -3.119480645050e-003 -3.169329504037e-003 -1.271473064013e-002 -2.573097405364e-002 
                -1.794402980626e-002 -9.032148986380e-003 -3.132835176353e-003 -3.173015089438e-003 -3.293393691953e-002 -4.361794153763e-002  2.838159246286e-001 -7.690770907732e-001 
                -2.829342624693e-003 -3.437313531247e-003 -1.271322718500e-002 -2.573952444282e-002  2.838095343441e-001 -7.693171441086e-001 -3.439417288787e-002 -4.273303050755e-002 
2.20000000e+008 -3.760599906178e-002 -2.859858142575e-002  2.057274110881e-002 -8.171080558973e-001  3.330700963759e-003 -1.287816792101e-003 -4.759824187661e-003 -3.146825337154e-003 
                 2.040284984845e-002 -8.173193801655e-001 -3.710064171268e-002 -3.510122306284e-002 -4.861773276787e-003 -2.801157190363e-003  2.815035780140e-003 -2.092852748180e-002 
                 3.354557209941e-003 -1.275878883449e-003 -4.862833703399e-003 -2.797310918200e-003 -3.228426965831e-002 -3.170057489431e-002  3.260664157993e-004 -8.155329348161e-001 
                -4.756736592285e-003 -3.147868007337e-003  2.811938878151e-003 -2.095013230855e-002  1.603534897667e-004 -8.157309842391e-001 -3.334272315136e-002 -3.082449151003e-002 
2.30000000e+008 -2.967194485885e-002 -1.961996106758e-002 -2.612367945938e-001 -7.695849585168e-001  2.484074238762e-002 -9.258380940083e-003 -6.989303166614e-003 -1.352701831578e-003 
                -2.616354568216e-001 -7.696068933097e-001 -3.141761092224e-002 -2.483497589970e-002 -6.928156606760e-003 -1.041480692192e-003  1.756998058969e-002 -2.880422507338e-002 
                 2.486395693583e-002 -9.296271859893e-003 -6.934096254584e-003 -1.049036763973e-003 -2.570618156122e-002 -2.333371634656e-002 -2.805413282860e-001 -7.608414423180e-001 
                -7.010757245304e-003 -1.357631705368e-003  1.757985051141e-002 -2.883920042228e-002 -2.807256632667e-001 -7.608843015495e-001 -2.687194928367e-002 -2.294472851649e-002 
2.40000000e+008 -1.889821528030e-002 -1.747142318815e-002 -5.073072026867e-001 -6.279305758690e-001  3.732053811280e-002 -3.041259416707e-002 -8.248785939864e-003  2.191747138312e-003 
                -5.074773870205e-001 -6.278007603881e-001 -2.249040622755e-002 -2.128555340413e-002 -8.067905981889e-003  2.405920627827e-003  2.418036326667e-002 -4.661802535814e-002 
                 3.733360836278e-002 -3.049148890453e-002 -8.085632664848e-003  2.416457202009e-003 -1.659294563136e-002 -2.138322967362e-002 -5.229037015351e-001 -6.125467293276e-001 
                -8.275461674289e-003  2.196492221104e-003  2.418787965859e-002 -4.665918573680e-002 -5.230196984567e-001 -6.126344102735e-001 -1.836276826400e-002 -2.146133189442e-002 
2.50000000e+008 -1.048356225620e-002 -2.286632780795e-002 -6.872900861764e-001 -4.117068151824e-001  3.430628750937e-002 -5.746449437109e-002 -6.995543094644e-003  6.820210906634e-003 
                -6.872899128022e-001 -4.117635347737e-001 -1.536604199974e-002 -2.523473356828e-002 -6.684390727041e-003  6.774378909409e-003  1.791267904403e-002 -6.807473535362e-002 
                 3.427826798477e-002 -5.756153549867e-002 -6.690479058621e-003  6.785228880897e-003 -1.012021310598e-002 -2.610174920747e-002 -6.970719731605e-001 -3.913502350315e-001 
                -6.999951028073e-003  6.832877110309e-003  1.790548833223e-002 -6.813039427146e-002 -6.972288746730e-001 -3.914711325797e-001 -1.244542582017e-002 -2.647356011485e-002 
2.60000000e+008 -9.096812213525e-003 -3.121551222633e-002 -7.808446915259e-001 -1.505997109588e-001  1.524867056671e-002 -7.908840035649e-002 -2.734294426483e-003  9.071893903111e-003 
                -7.809517196367e-001 -1.506837029428e-001 -1.365579377187e-002 -3.235309854497e-002 -3.035076326506e-003  8.814079401292e-003 -1.156139854177e-003 -8.380502556313e-002 
                 1.517823070827e-002 -7.919053438743e-002 -3.024044889170e-003  8.846409074211e-003 -9.326814424106e-003 -3.308759075089e-002 -7.833572582262e-001 -1.272542095976e-001 
                -2.736081917584e-003  9.098508489872e-003 -1.197021981162e-003 -8.384045526699e-002 -7.835630562004e-001 -1.272408852799e-001 -1.257321718193e-002 -3.362731048859e-002 
2.70000000e+008 -1.418251250237e-002 -4.023028695051e-002 -7.805935499975e-001  1.252741331095e-001 -1.348490661516e-002 -8.991644664677e-002  9.906028915515e-004  9.806092081520e-003 
                -7.806584777913e-001  1.252545188870e-001 -1.726312094172e-002 -4.128616179002e-002  7.247446744832e-004  1.000077367791e-002 -2.686747870516e-002 -8.988648643722e-002 
                -1.361114229318e-002 -8.995608487187e-002  7.407433621856e-004  1.002767791023e-002 -1.425412818960e-002 -4.068421942909e-002 -7.745801625896e-001  1.488306309992e-001 
                 9.904029038963e-004  9.842294757218e-003 -2.692775624116e-002 -8.991229119435e-002 -7.747190252784e-001  1.489081659001e-001 -1.738657083877e-002 -4.045941822949e-002 
2.80000000e+008 -2.702328407425e-002 -4.458358525111e-002 -6.863094603329e-001  3.826631738470e-001 -4.614145059902e-002 -8.467187089357e-002  5.270788417610e-003  8.600369669775e-003 
                -6.863956147769e-001  3.826667691073e-001 -2.741051049639e-002 -4.727534794507e-002  5.118196468244e-003  8.952173418364e-003 -5.460091219682e-002 -8.302132904426e-002 
                -4.625797886051e-002 -8.464017561265e-002  5.134387076729e-003  8.968256538833e-003 -2.531254681870e-002 -4.395678729788e-002 -6.722927037615e-001  4.032020598819e-001 
                 5.310980629980e-003  8.615574603471e-003 -5.466732680239e-002 -8.303628385399e-002 -6.724026273052e-001  4.033920601216e-001 -2.717239160003e-002 -4.390240649138e-002 
2.90000000e+008 -4.266338274130e-002 -4.046035809368e-002 -5.110737963987e-001  5.908591311054e-001 -7.275455741677e-002 -6.372560289310e-002  8.219790898359e-003  5.381975714109e-003 
                -5.111980248990e-001  5.908786015243e-001 -4.085028267855e-002 -4.714227451113e-002  8.311307905681e-003  5.854034241185e-003 -7.669427426795e-002 -6.404369616529e-002 
                -7.286164203220e-002 -6.368066381856e-002  8.331051256275e-003  5.857255412334e-003 -3.819964081064e-002 -3.995553435931e-002 -4.904772922060e-001  6.059140099315e-001 
                 8.250733163575e-003  5.369333130239e-003 -7.676280684277e-002 -6.404429971996e-002 -4.905116764551e-001  6.061434791055e-001 -3.881092239405e-002 -4.146956844389e-002 
3.00000000e+008 -5.519167152692e-002 -2.766917987697e-002 -2.770914491359e-001  7.263366090400e-001 -8.593107912721e-002 -3.286946377770e-002  8.995950906746e-003  1.638781035836e-003 
                -2.770978474772e-001  7.265353810927e-001 -5.376788691405e-002 -3.981910327717e-002  9.416303085504e-003  1.969171450617e-003 -8.782294076206e-002 -3.786752430386e-002 
                -8.602384773970e-002 -3.279752606610e-002  9.446270402336e-003  1.962620565966e-003 -4.806083465042e-002 -2.876046337778e-002 -2.518411665694e-001  7.339158866995e-001 
                 8.993783480822e-003  1.622707521425e-003 -8.787543767998e-002 -3.786446947407e-002 -2.518478335455e-001  7.340700687124e-001 -4.868478222492e-002 -3.311387353832e-002 
3.10000000e+008 -5.973594223509e-002 -9.584738143847e-003 -1.177353287154e-002  7.739494540632e-001 -8.261816467446e-002 -7.960840553110e-004  8.315763926607e-003 -1.214613649250e-003 
                -1.156201456487e-002  7.740496536497e-001 -6.213975805499e-002 -2.650402997409e-002  8.848786629651e-003 -1.238224609230e-003 -8.616330923847e-002 -1.126050429939e-002 
                -8.268326291877e-002 -6.727771586965e-004  8.840465255503e-003 -1.268438041939e-003 -5.081157254543e-002 -1.323911475364e-002  1.534090633997e-002  7.724406774903e-001 
