! peters_01_0605 M1 channel thru response
#        HZ        S              RI          R       50
5.00000000e+007  4.250305375025e-002 -1.007793085556e-003  6.592069785111e-001 -6.902007373303e-001  3.377984339922e-002  3.041362023706e-002 -4.086302693931e-003 -1.389239465884e-003 
                 6.589625824146e-001 -6.887244713660e-001  4.184850433756e-002 -1.244336654287e-003 -4.080943708365e-003 -1.407972815488e-003  3.405950878129e-002  2.996401771421e-002 
                 3.373795993954e-002  3.048543750905e-002 -4.095693897721e-003 -1.435580543255e-003  4.385740487613e-002 -3.740568554455e-004  6.538875362648e-001 -6.940558226011e-001 
                -4.070359046452e-003 -1.404924636046e-003  3.405340673355e-002  2.999819017606e-002  6.537498681769e-001 -6.942143436394e-001  4.416366199280e-002 -4.544396387764e-004 
6.00000000e+007  4.436376732054e-002 -5.504885569142e-003  5.399512089998e-001 -7.806633271140e-001  4.444790259240e-002  2.914103903667e-002 -4.819962723163e-003 -8.820200379359e-004 
                 5.403263680168e-001 -7.804450661326e-001  4.396626693223e-002 -5.604199857566e-003 -4.800220271202e-003 -9.115269320984e-004  4.481204854418e-002  2.845496783119e-002 
                 4.439160434582e-002  2.908281904500e-002 -4.795969780525e-003 -9.231088041469e-004  4.628095201365e-002 -5.620597985072e-003  5.327775301957e-001 -7.844611326271e-001 
                -4.834536638484e-003 -8.967410390713e-004  4.474423883811e-002  2.846285282255e-002  5.331479897725e-001 -7.845141056103e-001  4.700645089362e-002 -5.541822659164e-003 
7.00000000e+007  4.504323087073e-002 -1.046087552390e-002  4.092723608886e-001 -8.509009551979e-001  5.494146048893e-002  2.502186164822e-002 -5.422334435888e-003 -1.994122999695e-004 
                 4.097620363356e-001 -8.508084378161e-001  4.588435968942e-002 -1.053392708785e-002 -5.431374076527e-003 -1.689131162331e-004  5.526377333518e-002  2.407976081189e-002 
                 5.490111833267e-002  2.497048607500e-002 -5.399800022927e-003 -1.541548325490e-004  4.749607769266e-002 -1.138699116593e-002  4.005658373951e-001 -8.540290821254e-001 
                -5.438665557219e-003 -1.904756066133e-004  5.519317643655e-002  2.405402510692e-002  4.009054295911e-001 -8.541470015948e-001  4.891306229793e-002 -1.154897833745e-002 
8.00000000e+007  4.466855254582e-002 -1.613692812965e-002  2.706280678987e-001 -8.997470295708e-001  6.447435294335e-002  1.814877991866e-002 -5.822000529069e-003  6.484395419159e-004 
                 2.710940979396e-001 -9.000265724335e-001  4.685193272777e-002 -1.672007522927e-002 -5.852492710581e-003  7.066498939314e-004  6.472205921571e-002  1.691932799724e-002 
                 6.443857514087e-002  1.809129442064e-002 -5.835553282973e-003  6.796638004033e-004  4.746238387764e-002 -1.743964855298e-002  2.602471456545e-001 -9.018208274484e-001 
                -5.849687681238e-003  6.251744012493e-004  6.463350158209e-002  1.689037859962e-002  2.603628255971e-001 -9.019612563692e-001  4.933514379513e-002 -1.825155324114e-002 
9.00000000e+007  4.323762531047e-002 -2.206210412702e-002  1.270850586390e-001 -9.265239109012e-001  7.248598600142e-002  8.831439146701e-003 -6.087418267537e-003  1.551406728120e-003 
                 1.274037726193e-001 -9.267587357815e-001  4.622724776883e-002 -2.308088223442e-002 -6.084823894053e-003  1.589477643239e-003  7.251956405428e-002  7.388765416340e-003 
                 7.243909944315e-002  8.802820903848e-003 -6.103141021357e-003  1.590571807065e-003  4.626727961218e-002 -2.327552580047e-002  1.153606209984e-001 -9.269330321975e-001 
                -6.071087805852e-003  1.542591602997e-003  7.243761729280e-002  7.364327663983e-003  1.153650970495e-001 -9.271199098729e-001  4.837130204915e-002 -2.507001121001e-002 
1.00000000e+008  4.157273949113e-002 -2.788926410293e-002 -1.802402628268e-002 -9.307074902463e-001  7.843194315630e-002 -2.507005529794e-003 -6.225859916081e-003  2.531898359992e-003 
                -1.780403256122e-002 -9.311408030720e-001  4.422512257245e-002 -2.905037181262e-002 -6.267604785158e-003  2.527388821899e-003  7.820830902182e-002 -4.086517459647e-003 
                 7.836513664638e-002 -2.561836722799e-003 -6.245932498383e-003  2.527641435339e-003  4.433408614881e-002 -2.857118923583e-002 -3.079881133490e-002 -9.292847654220e-001 
                -6.221452182501e-003  2.521488001331e-003  7.811091916695e-002 -4.110507011757e-003 -3.074519128372e-002 -9.294696410841e-001  4.598306942898e-002 -3.113990287219e-002 
1.10000000e+008  3.895767162000e-002 -3.345635553895e-002 -1.610419726597e-001 -9.126404059880e-001  8.185043170886e-002 -1.533185915252e-002 -6.249017207020e-003  3.590352760714e-003 
                -1.609801320561e-001 -9.128838502483e-001  4.169522432499e-002 -3.425028393296e-002 -6.344382981965e-003  3.574399051330e-003  8.135169077772e-002 -1.697578344604e-002 
                 8.176687746212e-002 -1.539751168517e-002 -6.323518423540e-003  3.554381907893e-003  4.197375257157e-002 -3.336145656383e-002 -1.746145560733e-001 -9.088804700352e-001 
                -6.250981489196e-003  3.582911584414e-003  8.126088401509e-002 -1.696546191787e-002 -1.745714289374e-001 -9.091484143130e-001  4.301629037217e-002 -3.669291978867e-002 
1.20000000e+008  3.693304148767e-002 -3.831587099975e-002 -2.985674493642e-001 -8.727497647259e-001  8.248298180745e-002 -2.900451806447e-002 -6.060793830888e-003  4.802714559441e-003 
                -2.983035920038e-001 -8.729414367566e-001  3.906491712666e-002 -3.908310799933e-002 -6.230270789462e-003  4.778873286662e-003  8.170356188497e-002 -3.062618161490e-002 
                 8.238678967891e-002 -2.902179676385e-002 -6.236807044543e-003  4.752211999599e-003  3.960172580085e-002 -3.786064259352e-002 -3.123544248014e-001 -8.665727616369e-001 
                -6.090834938950e-003  4.795334581285e-003  8.160805615509e-002 -3.062453910818e-002 -3.124235628054e-001 -8.667763812962e-001  3.974112382870e-002 -4.183082210322e-002 
1.30000000e+008  3.489698677683e-002 -4.300812177831e-002 -4.273975632122e-001 -8.128661086559e-001  8.024214762659e-002 -4.293143101823e-002 -5.640840325145e-003  6.038053446784e-003 
                -4.271451507143e-001 -8.133511994841e-001  3.608776501521e-002 -4.395821984802e-002 -5.880082957559e-003  6.054603571847e-003  7.922149507113e-002 -4.442816628779e-002 
                 8.016527749355e-002 -4.292035540838e-002 -5.891490404021e-003  6.040710622048e-003  3.706567444336e-002 -4.219766584846e-002 -4.411291173693e-001 -8.040724710553e-001 
                -5.669737506397e-003  6.019172501977e-003  7.912484905311e-002 -4.440422898017e-002 -4.411855172428e-001 -8.043300989421e-001  3.602769291454e-002 -4.682867069708e-002 
1.40000000e+008  3.244929463664e-002 -4.738526182881e-002 -5.450401571956e-001 -7.344028611111e-001  7.512761554918e-002 -5.646642990216e-002 -4.996425545696e-003  7.263441867759e-003 
                -5.450191812831e-001 -7.349936682948e-001  3.252227851220e-002 -4.866153759773e-002 -5.278092417076e-003  7.352709802297e-003  7.392085324356e-002 -5.776319264673e-002 
                 7.504581444134e-002 -5.646539463102e-002 -5.265478527991e-003  7.344528907375e-003  3.414183664605e-002 -4.656315186319e-002 -5.581422840147e-001 -7.228826846424e-001 
                -5.008942282187e-003  7.279106621950e-003  7.382328049422e-002 -5.771752351818e-002 -5.583821745292e-001 -7.231826044597e-001  3.169820028576e-002 -5.161345753429e-002 
1.50000000e+008  2.937289693954e-002 -5.136344504002e-002 -6.485724067879e-001 -6.394041059873e-001  6.728112163453e-002 -6.902238761880e-002 -4.111564320915e-003  8.528661256902e-003 
                -6.487735508268e-001 -6.398111232767e-001  2.837804662126e-002 -5.291018871599e-002 -4.366112513983e-003  8.630448743561e-003  6.599529747210e-002 -7.002215044234e-002 
                 6.718413213439e-002 -6.903728422634e-002 -4.364479752419e-003  8.625671306671e-003  3.064190297614e-002 -5.073583765940e-002 -6.606018438130e-001 -6.252018161969e-001 
                -4.101032244131e-003  8.539277693845e-003  6.590135260532e-002 -6.997326893743e-002 -6.608358618821e-001 -6.252556798259e-001  2.675052861634e-002 -5.593329258810e-002 
1.60000000e+008  2.556380598295e-002 -5.498709070924e-002 -7.362799639655e-001 -5.302447594686e-001  5.694388864249e-002 -8.011317661454e-002 -2.848002822272e-003  9.748498136858e-003 
                -7.364859010181e-001 -5.304430628989e-001  2.394802473362e-002 -5.681617516481e-002 -3.171568016440e-003  9.810058935455e-003  5.573156616339e-002 -8.078513024669e-002 
                 5.682135437050e-002 -8.009348594925e-002 -3.172003075895e-003  9.833037195420e-003  2.660119317973e-002 -5.467968334231e-002 -7.465547342138e-001 -5.134347567578e-001 
                -2.844990965781e-003  9.759794178395e-003  5.562549598103e-002 -8.071979371173e-002 -7.466557325582e-001 -5.134696663669e-001  2.127344551162e-002 -5.968190777836e-002 
1.70000000e+008  2.064956145011e-002 -5.845384202872e-002 -8.056952825703e-001 -4.090621064399e-001  4.441009239444e-002 -8.927724269105e-002 -1.157974454007e-003  1.080512767920e-002 
                -8.058280279997e-001 -4.091408245520e-001  1.913281930580e-002 -6.050078794042e-002 -1.710447093802e-003  1.092795002456e-002  4.341774011958e-002 -8.960293782521e-002 
                 4.428530049925e-002 -8.921642095876e-002 -1.709796391195e-003  1.094424621893e-002  2.188691427617e-002 -5.839077964429e-002 -8.137308258924e-001 -3.900361494482e-001 
                -1.178983324167e-003  1.080989705415e-002  4.332351023157e-002 -8.952412745855e-002 -8.139037534375e-001 -3.900733041883e-001  1.518842811662e-002 -6.263991280602e-002 
1.80000000e+008  1.404761686998e-002 -6.128769525177e-002 -8.546099777983e-001 -2.797369868850e-001  2.960111304122e-002 -9.593504318403e-002  1.281628775121e-003  1.110025691967e-002 
                -8.547065034687e-001 -2.798406918808e-001  1.300337945632e-002 -6.423096822184e-002  5.688555248187e-004  1.200653169703e-002  2.901009184141e-002 -9.597752511580e-002 
                 2.947562113238e-002 -9.583767308768e-002  5.864281304410e-004  1.201169338802e-002  1.589400019040e-002 -6.184530526198e-002 -8.601791375571e-001 -2.587475667914e-001 
                 1.264945712772e-003  1.111827380234e-002  2.892536400146e-002 -9.586000186930e-002 -8.602566471177e-001 -2.587259556574e-001  8.269183697219e-003 -6.452831732644e-002 
1.90000000e+008  8.186091824166e-003 -6.271600596854e-002 -8.842837525146e-001 -1.465122792111e-001  1.459686224642e-002 -9.856703189484e-002  2.267601586150e-003  1.031673165525e-002 
                -8.843722192830e-001 -1.465901036274e-001  6.169279456920e-003 -6.563771263521e-002  2.918402841944e-003  1.131365461962e-002  1.461757999137e-002 -9.844264746133e-002 
                 1.447646612036e-002 -9.847360536035e-002  2.913795859465e-003  1.131380938011e-002  9.483807462708e-003 -6.335510332254e-002 -8.868414649884e-001 -1.234973083847e-001 
                 2.273593301684e-003  1.033691586009e-002  1.456282947803e-002 -9.831833439697e-002 -8.869046866378e-001 -1.234638233204e-001  2.293623973194e-003 -6.494150916840e-002 
2.00000000e+008  1.803130847977e-003 -6.522508121225e-002 -8.937895432412e-001 -9.402675880392e-003 -2.029597924034e-004 -9.983879370426e-002  3.571310663807e-003  1.089458421155e-002 
                -8.939071278452e-001 -9.442702815642e-003 -5.251315414763e-005 -6.706897944183e-002  4.261800956068e-003  1.096274129088e-002  6.035325043341e-004 -9.973017383178e-002 
                -3.147212879640e-004 -9.973750345036e-002  4.251779252856e-003  1.095590604126e-002  3.514494728696e-003 -6.500306093410e-002 -8.925295207071e-001  1.484698876521e-002 
                 3.586709801597e-003  1.089794667812e-002  5.566138682139e-004 -9.959244457790e-002 -8.926194359427e-001  1.485283226644e-002 -4.234998377211e-003 -6.573973048884e-002 
2.10000000e+008 -5.429734875443e-003 -6.701338872332e-002 -8.818743163966e-001  1.269290176597e-001 -1.581665696537e-002 -9.851640800618e-002  5.483274780213e-003  1.068746189161e-002 
                -8.820625250280e-001  1.269199651367e-001 -7.445326587480e-003 -6.796843191516e-002  5.879827596764e-003  1.070557907973e-002 -1.412796380912e-002 -9.883938979277e-002 
                -1.590948241049e-002 -9.839611092635e-002  5.885662939217e-003  1.070693680592e-002 -3.356029530674e-003 -6.592062728607e-002 -8.767270937132e-001  1.516611573650e-001 
                 5.495886618639e-003  1.067760793788e-002 -1.415313000904e-002 -9.870850234376e-002 -8.769137834111e-001  1.517435315909e-001 -1.141128534729e-002 -6.575111651313e-002 
2.20000000e+008 -1.286902234782e-002 -6.758469253323e-002 -8.494227522121e-001  2.593168475061e-001 -3.092312515711e-002 -9.424657251337e-002  7.269917446395e-003  1.008232117732e-002 
                -8.497071144156e-001  2.593922944797e-001 -1.521232467400e-002 -6.759742688899e-002  7.675084087484e-003  1.011468700702e-002 -2.849608349221e-002 -9.522675268329e-002 
                -3.099951738400e-002 -9.411514141178e-002  7.691417243596e-003  1.011986273548e-002 -1.042235788239e-002 -6.594142898187e-002 -8.402180004022e-001  2.840459195697e-001 
                 7.273746017831e-003  1.008695766166e-002 -2.849579237600e-002 -9.508696041973e-002 -8.403561207905e-001  2.841775347824e-001 -1.910230516246e-002 -6.452375687667e-002 
2.30000000e+008 -2.039561391101e-002 -6.689277556054e-002 -7.973727854790e-001  3.847636081784e-001 -4.503113027959e-002 -8.749259458230e-002  9.004233622276e-003  9.171880171234e-003 
                -7.977370199432e-001  3.849683062749e-001 -2.325635999581e-002 -6.616160986362e-002  9.434627003833e-003  9.181777513017e-003 -4.193979577659e-002 -8.933515338442e-002 
                -4.510239810675e-002 -8.735122522907e-002  9.464300469939e-003  9.168442922040e-003 -1.777728800731e-002 -6.494279217207e-002 -7.840328656212e-001  4.087963851049e-001 
                 9.016091597731e-003  9.185463151161e-003 -4.190766156247e-002 -8.919778364043e-002 -7.841499466760e-001  4.089654807547e-001 -2.683187953229e-002 -6.202395893334e-002 
2.40000000e+008 -2.803013305196e-002 -6.463696194972e-002 -7.268904876664e-001  5.004221707760e-001 -5.781815663659e-002 -7.844962000639e-002  1.063188161917e-002  7.900608156078e-003 
                -7.273060447300e-001  5.007673094355e-001 -3.144352918758e-002 -6.359636386799e-002  1.113454793751e-002  7.871615985766e-003 -5.414672374998e-002 -8.143225397926e-002 
                -5.788150105649e-002 -7.829348498724e-002  1.114015654826e-002  7.842849487290e-003 -2.532222320048e-002 -6.268673445144e-002 -7.094132482594e-001  5.230397677520e-001 
                 1.067628719469e-002  7.896121372964e-003 -5.411406708896e-002 -8.130744925338e-002 -7.094740967446e-001  5.231813522455e-001 -3.432783710998e-002 -5.832822643756e-002 
2.50000000e+008 -3.578193796343e-002 -6.053789391432e-002 -6.399848371674e-001  6.035583660433e-001 -6.887963912167e-002 -6.739294131783e-002  1.209143823239e-002  6.269092555729e-003 
                -6.402666625689e-001  6.038512821912e-001 -3.944879915372e-002 -5.974163980282e-002  1.260916214857e-002  6.175000397648e-003 -6.482555359955e-002 -7.178969375553e-002 
                -6.888321035560e-002 -6.722760471046e-002  1.260318354812e-002  6.150799984744e-003 -3.281302678332e-002 -5.897402324174e-002 -6.184992860077e-001  6.240207246694e-001 
                 1.209890637576e-002  6.254667418065e-003 -6.478317622351e-002 -7.168108538795e-002 -6.185589054924e-001  6.241446673048e-001 -4.121112185157e-002 -5.337591021927e-002 
2.60000000e+008 -4.341487269080e-002 -5.462708223255e-002 -5.387300761363e-001  6.919986065790e-001 -7.785284157221e-002 -5.473466253785e-002  1.321536903486e-002  4.340751233644e-003 
                -5.389685845016e-001  6.920967910122e-001 -4.690924263513e-002 -5.459131326867e-002  1.372645601863e-002  4.187553721274e-003 -7.381134786103e-002 -6.080281101181e-002 
                -7.784614909247e-002 -5.453878960403e-002  1.372561809440e-002  4.180013388347e-003 -3.995385375958e-002 -5.375009115116e-002 -5.135083644095e-001  7.096621287983e-001 
                 1.322186177607e-002  4.337003132853e-003 -7.373320048338e-002 -6.068848453766e-002 -5.135550859701e-001  7.097073188317e-001 -4.715413982572e-002 -4.740409124006e-002 
2.70000000e+008 -5.066101437423e-002 -4.697019105320e-002 -4.257627149128e-001  7.634898709152e-001 -8.461896393775e-002 -4.088622485755e-002  1.402244519340e-002  2.276283549569e-003 
                -4.260785101438e-001  7.635392860375e-001 -5.334214698124e-002 -4.837114242430e-002  1.450799057041e-002  2.091691566355e-003 -8.092996348180e-002 -4.876417954641e-002 
                -8.452252044923e-002 -4.070408463421e-002  1.449545380979e-002  2.094548841185e-003 -4.624381906794e-002 -4.707361619858e-002 -3.970216270112e-001  7.775662913259e-001 
                 1.403485173130e-002  2.262209733987e-003 -8.083763510542e-002 -4.865193266009e-002 -3.971381456312e-001  7.776707260361e-001 -5.194789020746e-002 -4.061079347899e-002 
2.80000000e+008 -5.699565139906e-002 -3.788115385777e-002 -3.035765368885e-001  8.171336527520e-001 -8.902931540122e-002 -2.623747747382e-002  1.451888579430e-002  5.758725549707e-005 
                -3.040438616079e-001  8.173173212789e-001 -5.864918025338e-002 -4.137367196184e-002  1.501140148628e-002 -1.340500568153e-004 -8.615983184141e-002 -3.596535280045e-002 
                -8.891165034574e-002 -2.609529989859e-002  1.500938337273e-002 -1.360542926110e-004 -5.135593515902e-002 -3.918341910735e-002 -2.721505226945e-001  8.269220646603e-001 
                 1.453897918045e-002  2.460468111389e-005 -8.606713310774e-002 -3.587067949753e-002 -2.721353698149e-001  8.270765419867e-001 -5.555681702172e-002 -3.325856406124e-002 
2.90000000e+008 -6.185946255423e-002 -2.782409268065e-002 -1.750488019653e-001  8.512796739095e-001 -9.102288205402e-002 -1.116431670908e-002  1.463894388416e-002 -2.296616197040e-003 
                -1.753480571180e-001  8.516274989272e-001 -6.271029570894e-002 -3.368776347722e-002  1.513801664334e-002 -2.517969043893e-003 -8.945222272598e-002 -2.270999668387e-002 
                -9.090995141421e-002 -1.105789916150e-002  1.513972434060e-002 -2.544140501364e-003 -5.496264892318e-002 -3.042343281661e-002 -1.415000113236e-001  8.565033143920e-001 
                 1.461137316736e-002 -2.323746794356e-003 -8.934150908673e-002 -2.264213572316e-002 -1.414248846950e-001  8.565704535402e-001 -5.796314913910e-002 -2.549906503930e-002 
3.00000000e+008 -6.446749468446e-002 -1.736012169051e-002 -4.327305488543e-002  8.656841271191e-001 -9.054450520132e-002  3.865967776467e-003  1.427093639188e-002 -4.567343921687e-003 
                -4.325508354496e-002  8.660955365158e-001 -6.536284291338e-002 -2.533750521028e-002  1.480533220559e-002 -4.893238935740e-003 -9.081895950297e-002 -9.291310122797e-003 
                -9.043270982102e-002  3.974342011785e-003  1.479846316965e-002 -4.929816610827e-003 -5.678755916707e-002 -2.117788440442e-002 -8.180300220170e-003  8.657953558690e-001 
                 1.424713865252e-002 -4.566241475856e-003 -9.071300871534e-002 -9.246055310791e-003 -8.146113622068e-003  8.658946825809e-001 -5.909256741078e-002 -1.731104424354e-002 
3.10000000e+008 -6.479331574404e-002 -7.413021711403e-003  8.900150988294e-002  8.596047761841e-001 -8.777155020409e-002  1.849986418250e-002  1.365386080975e-002 -6.619845994288e-003 
                 8.917828312793e-002  8.598005980385e-001 -6.647068867838e-002 -1.646687422134e-002  1.413071868729e-002 -7.130804539501e-003 -9.030236929479e-002  4.024396072446e-003 
                -8.764257415384e-002  1.860705274051e-002  1.409647521415e-002 -7.149756816618e-003 -5.675810998296e-002 -1.179143126015e-002  1.248102144238e-001  8.542322597394e-001 
